(1621945396.763904) elmcan 301#0000 R
(1621945396.783950) elmcan 321#0000000004100408 R
(1621945396.800194) elmcan 2C1#0880000000001380 R
(1621945396.800450) elmcan 521#0000000000000000 R
(1621945396.800704) elmcan 501#0000C00000000000 R
(1621945396.800960) elmcan 2A1#0000000000000000 R
(1621945396.801208) elmcan 281#0A0290A029000000 R
(1621945396.801461) elmcan 261#0000000001640008 R
(1621945396.801697) elmcan 241#5555555555550001 R
(1621945396.801933) elmcan 221#5DC2ED815D029F00 R
(1621945396.802173) elmcan 201#28D0184458004B00 R
(1621945396.863538) elmcan 301#0000 R
(1621945396.883604) elmcan 321#0000000004100408 R
(1621945396.900194) elmcan 221#5DC2ED815D029F00 R
(1621945396.900446) elmcan 201#28D0184458004B00 R
(1621945396.963192) elmcan 301#0000 R
(1621945396.983236) elmcan 321#0000000004100408 R
(1621945397.000206) elmcan 221#5DC2ED815CF29F00 R
(1621945397.000460) elmcan 201#2890180458004B00 R
(1621945397.062848) elmcan 301#0000 R
(1621945397.082890) elmcan 321#0000000004100408 R
(1621945397.100217) elmcan 221#5DC2ED815D029F00 R
(1621945397.100458) elmcan 201#28D0184458004B00 R
(1621945397.162502) elmcan 301#0000 R
(1621945397.182544) elmcan 321#0000000004100408 R
(1621945397.195636) elmcan 101#0000000000 R
(1621945397.195788) elmcan 121#000000 R
(1621945397.200228) elmcan 221#5DC2ED815D029F00 R
(1621945397.200468) elmcan 201#28D0184455004900 R
(1621945397.262156) elmcan 301#0000 R
(1621945397.282200) elmcan 321#0000000004100408 R
(1621945397.300238) elmcan 221#5DC2ED815CF29F00 R
(1621945397.300480) elmcan 201#2890180458004B00 R
(1621945397.361812) elmcan 301#0000 R
(1621945397.381856) elmcan 321#0000000004100408 R
(1621945397.400250) elmcan 221#5DC2ED815CF29F00 R
(1621945397.400494) elmcan 201#2890180458004B00 R
(1621945397.461466) elmcan 301#0000 R
(1621945397.481510) elmcan 321#0000000004100408 R
(1621945397.500262) elmcan 221#5DC2ED815CF29F00 R
(1621945397.500504) elmcan 201#2890180458004B00 R
(1621945397.561122) elmcan 301#0000 R
(1621945397.581164) elmcan 321#0000000004100408 R
(1621945397.600274) elmcan 221#5DC2ED815D029F00 R
(1621945397.600516) elmcan 201#28D0184458004B00 R
(1621945397.660777) elmcan 301#0000 R
(1621945397.680819) elmcan 321#0000000004100408 R
(1621945397.700285) elmcan 221#5DC2ED815D029F00 R
(1621945397.700528) elmcan 201#28D0184455004900 R
(1621945397.760432) elmcan 301#0000 R
(1621945397.780474) elmcan 321#0000000004100408 R
(1621945397.800308) elmcan 2C1#0880000000001380 R
(1621945397.800562) elmcan 521#0000000000000000 R
(1621945397.800816) elmcan 501#0000C00000000000 R
(1621945397.801073) elmcan 2A1#0000000000000000 R
(1621945397.801321) elmcan 281#0A0290A029000000 R
(1621945397.801583) elmcan 261#0000000001640008 R
(1621945397.801819) elmcan 241#5555555555550001 R
(1621945397.802055) elmcan 221#5DC2ED815CF29F00 R
(1621945397.802297) elmcan 201#2890180458004B00 R
(1621945397.860087) elmcan 301#0000 R
(1621945397.880129) elmcan 321#0000000004100408 R
(1621945397.900307) elmcan 221#5DC2ED815D029F00 R
(1621945397.900549) elmcan 201#28D0184458004B00 R
(1621945397.959742) elmcan 301#0000 R
(1621945397.979784) elmcan 321#0000000004100408 R
(1621945398.000318) elmcan 221#5DC2ED815D029F00 R
(1621945398.000558) elmcan 201#28D0184458004B00 R
(1621945398.059396) elmcan 301#0000 R
(1621945398.079438) elmcan 321#0000000004100408 R
(1621945398.100331) elmcan 221#5DC2ED815CF29F00 R
(1621945398.100573) elmcan 201#2890180458004B00 R
(1621945398.159052) elmcan 301#0000 R
(1621945398.179094) elmcan 321#0000000004100408 R
(1621945398.195648) elmcan 101#0000000000 R
(1621945398.195800) elmcan 121#000000 R
(1621945398.200341) elmcan 221#5DC2ED815D029F00 R
(1621945398.200581) elmcan 201#28D0184458004B00 R
(1621945398.258706) elmcan 301#0000 R
(1621945398.278749) elmcan 321#0000000004100408 R
(1621945398.300354) elmcan 221#5DC2ED815D029F00 R
(1621945398.300594) elmcan 201#28D0184458004B00 R
(1621945398.358362) elmcan 301#0000 R
(1621945398.378403) elmcan 321#0000000004100408 R
(1621945398.400364) elmcan 221#5DC2ED815CF29F00 R
(1621945398.400606) elmcan 201#2890180458004B00 R
(1621945398.458015) elmcan 301#0000 R
(1621945398.478059) elmcan 321#0000000004100408 R
(1621945398.500375) elmcan 221#5DC2ED815D029F00 R
(1621945398.500616) elmcan 201#28D0184458004B00 R
(1621945398.557670) elmcan 301#0000 R
(1621945398.577714) elmcan 321#0000000004100408 R
(1621945398.600386) elmcan 221#5DC2ED815CF29F00 R
(1621945398.600630) elmcan 201#2890180458004B00 R
(1621945398.657326) elmcan 301#0000 R
(1621945398.677368) elmcan 321#0000000004100408 R
(1621945398.700398) elmcan 221#5DC2ED815D029F00 R
(1621945398.700641) elmcan 201#28D0184458004B00 R
(1621945398.756981) elmcan 301#0000 R
(1621945398.777023) elmcan 321#0000000004100408 R
(1621945398.800422) elmcan 2C1#0880000000001380 R
(1621945398.800676) elmcan 521#0000000000000000 R
(1621945398.800930) elmcan 501#0000C00000000000 R
(1621945398.801186) elmcan 2A1#0000000000000000 R
(1621945398.801435) elmcan 281#0A0290A029000000 R
(1621945398.801687) elmcan 261#0000000001640008 R
(1621945398.801923) elmcan 241#5555555555550001 R
(1621945398.802159) elmcan 221#5DC2ED815D029F00 R
(1621945398.802399) elmcan 201#28D0184458004B00 R
(1621945398.856635) elmcan 301#0000 R
(1621945398.876677) elmcan 321#0000000004100408 R
(1621945398.900420) elmcan 221#5DC2ED815CF29F00 R
(1621945398.900662) elmcan 201#2890180458004B00 R
(1621945398.956289) elmcan 301#0000 R
(1621945398.976333) elmcan 321#0000000004100408 R
(1621945399.000432) elmcan 221#5DC2ED815CF29F00 R
(1621945399.000674) elmcan 201#2890180458004B00 R
(1621945399.055945) elmcan 301#0000 R
(1621945399.075989) elmcan 321#0000000004100408 R
(1621945399.100443) elmcan 221#5DC2ED815D029F00 R
(1621945399.100686) elmcan 201#28D0184458004B00 R
(1621945399.155599) elmcan 301#0000 R
(1621945399.175643) elmcan 321#0000000004100408 R
(1621945399.195661) elmcan 101#0000000000 R
(1621945399.195813) elmcan 121#000000 R
(1621945399.200455) elmcan 221#5DC2ED815D029F00 R
(1621945399.200695) elmcan 201#28D0184458004B00 R
(1621945399.255254) elmcan 301#0000 R
(1621945399.275298) elmcan 321#0000000004100408 R
(1621945399.300467) elmcan 221#5DC2ED815D029F00 R
(1621945399.300709) elmcan 201#28D0184458004B00 R
(1621945399.354909) elmcan 301#0000 R
(1621945399.374953) elmcan 321#0000000004100408 R
(1621945399.400478) elmcan 221#5DC2ED815D029F00 R
(1621945399.400718) elmcan 201#28D0184458004B00 R
(1621945399.454564) elmcan 301#0000 R
(1621945399.474608) elmcan 321#0000000004100408 R
(1621945399.500488) elmcan 221#5DC2ED815CF29F00 R
(1621945399.500731) elmcan 201#2890180458004B00 R
(1621945399.554219) elmcan 301#0000 R
(1621945399.574261) elmcan 321#0000000004100408 R
(1621945399.600500) elmcan 221#5DC2ED815D029F00 R
(1621945399.600740) elmcan 201#28D0184458004B00 R
(1621945399.653874) elmcan 301#0000 R
(1621945399.673916) elmcan 321#0000000004100408 R
(1621945399.700511) elmcan 221#5DC2ED815CF29F00 R
(1621945399.700755) elmcan 201#2890180458004B00 R
(1621945399.753529) elmcan 301#0000 R
(1621945399.773572) elmcan 321#0000000004100408 R
(1621945399.800535) elmcan 2C1#0880000000001380 R
(1621945399.800789) elmcan 521#0000000000000000 R
(1621945399.801044) elmcan 501#0000C00000000000 R
(1621945399.801300) elmcan 2A1#0000000000000000 R
(1621945399.801548) elmcan 281#0A0290A029000000 R
(1621945399.801800) elmcan 261#0000000001640008 R
(1621945399.802036) elmcan 241#5555555555550001 R
(1621945399.802278) elmcan 221#5DCAED815D029F00 R
(1621945399.802518) elmcan 201#28D0184458004B00 R
(1621945399.853185) elmcan 301#0000 R
(1621945399.873227) elmcan 321#0000000004100408 R
(1621945399.900534) elmcan 221#5DC2ED815D029F00 R
(1621945399.900774) elmcan 201#28D0184458004B00 R
(1621945399.952840) elmcan 301#0000 R
(1621945399.972882) elmcan 321#0000000004100408 R
(1621945400.000545) elmcan 221#5DC2ED815D029F00 R
(1621945400.000785) elmcan 201#28D0184458004B00 R
(1621945400.052494) elmcan 301#0000 R
(1621945400.072536) elmcan 321#0000000004100408 R
(1621945400.100557) elmcan 221#5DC2ED815D029F00 R
(1621945400.100799) elmcan 201#28D0184458004B00 R
(1621945400.152150) elmcan 301#0000 R
(1621945400.172191) elmcan 321#0000000004100408 R
(1621945400.195674) elmcan 101#0000000000 R
(1621945400.195826) elmcan 121#000000 R
(1621945400.200569) elmcan 221#5DC2ED815D029F00 R
(1621945400.200809) elmcan 201#28D0184458004B00 R
(1621945400.251804) elmcan 301#0000 R
(1621945400.271846) elmcan 321#0000000004100408 R
(1621945400.300579) elmcan 221#5DC2ED815D029F00 R
(1621945400.300822) elmcan 201#28D0184458004B00 R
(1621945400.351458) elmcan 301#0000 R
(1621945400.371500) elmcan 321#0000000004100408 R
(1621945400.400591) elmcan 221#5DC2ED815CF29F00 R
(1621945400.400834) elmcan 201#2890180458004B00 R
(1621945400.451116) elmcan 301#0000 R
(1621945400.471156) elmcan 321#0000000004100408 R
(1621945400.500603) elmcan 221#5DC2ED815CF29F00 R
(1621945400.500845) elmcan 201#2890180458004B00 R
(1621945400.550768) elmcan 301#0000 R
(1621945400.570810) elmcan 321#0000000004100408 R
(1621945400.600613) elmcan 221#5DC2ED815D029F00 R
(1621945400.600854) elmcan 201#28D0184458004B00 R
(1621945400.650424) elmcan 301#0000 R
(1621945400.670466) elmcan 321#0000000004100408 R
(1621945400.700625) elmcan 221#5DC2ED815D029F00 R
(1621945400.700867) elmcan 201#28D0184458004B00 R
(1621945400.750077) elmcan 301#0000 R
(1621945400.770121) elmcan 321#0000000004100408 R
(1621945400.800648) elmcan 2C1#0880000000001380 R
(1621945400.800903) elmcan 521#0000000000000000 R
(1621945400.801157) elmcan 501#0000C00000000000 R
(1621945400.801413) elmcan 2A1#0000000000000000 R
(1621945400.801661) elmcan 281#0A0290A029000000 R
(1621945400.801913) elmcan 261#0000000001640008 R
(1621945400.802149) elmcan 241#5555555555550001 R
(1621945400.802385) elmcan 221#5DC2ED815CF29F00 R
(1621945400.802627) elmcan 201#2890180458004B00 R
(1621945400.849733) elmcan 301#0000 R
(1621945400.869777) elmcan 321#0000000004100408 R
(1621945400.900648) elmcan 221#5DC2ED815D029F00 R
(1621945400.900888) elmcan 201#28D0184458004B00 R
(1621945400.949388) elmcan 301#0000 R
(1621945400.969430) elmcan 321#0000000004100408 R
(1621945401.000660) elmcan 221#5DC2ED815CF29F00 R
(1621945401.000904) elmcan 201#2890180458004B00 R
(1621945401.049043) elmcan 301#0000 R
(1621945401.069085) elmcan 321#0000000004100408 R
(1621945401.100671) elmcan 221#5DC2ED815D029F00 R
(1621945401.100911) elmcan 201#28D0184458004B00 R
(1621945401.148698) elmcan 301#0000 R
(1621945401.168739) elmcan 321#0000000004100408 R
(1621945401.195687) elmcan 101#0000000000 R
(1621945401.195839) elmcan 121#000000 R
(1621945401.200682) elmcan 221#5DC2ED815CF29F00 R
(1621945401.200924) elmcan 201#2890180458004B00 R
(1621945401.248352) elmcan 301#0000 R
(1621945401.268396) elmcan 321#0000000004100408 R
(1621945401.300694) elmcan 221#5DC2ED815CF29F00 R
(1621945401.300936) elmcan 201#2890180458004B00 R
(1621945401.348007) elmcan 301#0000 R
(1621945401.368051) elmcan 321#0000000004100408 R
(1621945401.400704) elmcan 221#5DC2ED815CF29F00 R
(1621945401.400947) elmcan 201#2890180458004B00 R
(1621945401.447663) elmcan 301#0000 R
(1621945401.467705) elmcan 321#0000000004100408 R
(1621945401.500717) elmcan 221#5DC2ED815CF29F00 R
(1621945401.500961) elmcan 201#2890180458004B00 R
(1621945401.547321) elmcan 301#0000 R
(1621945401.567361) elmcan 321#0000000004100408 R
(1621945401.600726) elmcan 221#5DCAED815CF29F00 R
(1621945401.600968) elmcan 201#2890180458004B00 R
(1621945401.646971) elmcan 301#0000 R
(1621945401.667015) elmcan 321#0000000004100408 R
(1621945401.700739) elmcan 221#5DC2ED815CF29F00 R
(1621945401.700983) elmcan 201#2890180458004B00 R
(1621945401.746627) elmcan 301#0000 R
(1621945401.766669) elmcan 321#0000000004100408 R
(1621945401.800761) elmcan 2C1#0880000000001380 R
(1621945401.801015) elmcan 521#0000000000000000 R
(1621945401.801269) elmcan 501#0000C00000000000 R
(1621945401.801526) elmcan 2A1#0000000000000000 R
(1621945401.801774) elmcan 281#0A0290A029000000 R
(1621945401.802026) elmcan 261#0000000001640008 R
(1621945401.802262) elmcan 241#5555555555550001 R
(1621945401.802498) elmcan 221#5DC2ED815CF29F00 R
(1621945401.802740) elmcan 201#2890180458004B00 R
(1621945401.846286) elmcan 301#0000 R
(1621945401.866324) elmcan 321#0000000004100408 R
(1621945401.900762) elmcan 221#5DC2ED815D029F00 R
(1621945401.901002) elmcan 201#28D0184458004B00 R
(1621945401.945937) elmcan 301#0000 R
(1621945401.965978) elmcan 321#0000000004100408 R
(1621945402.000772) elmcan 221#5DC2ED815D029F00 R
(1621945402.001015) elmcan 201#28D0184458004B00 R
(1621945402.045593) elmcan 301#0000 R
(1621945402.065634) elmcan 321#0000000004100408 R
(1621945402.100784) elmcan 221#5DC2ED815D029F00 R
(1621945402.101026) elmcan 201#28D0184458004B00 R
(1621945402.145254) elmcan 301#0000 R
(1621945402.165289) elmcan 321#0000000004100408 R
(1621945402.195700) elmcan 101#0000000000 R
(1621945402.195852) elmcan 121#000000 R
(1621945402.200795) elmcan 221#5DC2ED815D029F00 R
(1621945402.201035) elmcan 201#28D0184458004B00 R
(1621945402.244902) elmcan 301#0000 R
(1621945402.264944) elmcan 321#0000000004100408 R
(1621945402.300808) elmcan 221#5DC2ED815D029F00 R
(1621945402.301048) elmcan 201#28D0184458004B00 R
(1621945402.344555) elmcan 301#0000 R
(1621945402.364599) elmcan 321#0000000004100408 R
(1621945402.400817) elmcan 221#5DC2ED815D029F00 R
(1621945402.401057) elmcan 201#28D0184458004B00 R
(1621945402.444210) elmcan 301#0000 R
(1621945402.464254) elmcan 321#0000000004100408 R
(1621945402.500830) elmcan 221#5DC2ED815D029F00 R
(1621945402.501070) elmcan 201#28D0184458004B00 R
(1621945402.543867) elmcan 301#0000 R
(1621945402.563909) elmcan 321#0000000004100408 R
(1621945402.600841) elmcan 221#5DC2ED815D029F00 R
(1621945402.601081) elmcan 201#28D0184458004B00 R
(1621945402.643544) elmcan 301#0000 R
(1621945402.663564) elmcan 321#0000000004100408 R
(1621945402.700852) elmcan 221#5DC2ED815D029F00 R
(1621945402.701095) elmcan 201#28D0184458004B00 R
(1621945402.743175) elmcan 301#0000 R
(1621945402.763219) elmcan 321#0000000004100408 R
(1621945402.800875) elmcan 2C1#0880000000001380 R
(1621945402.801130) elmcan 521#0000000000000000 R
(1621945402.801384) elmcan 501#0000C00000000000 R
(1621945402.801640) elmcan 2A1#0000000000000000 R
(1621945402.801888) elmcan 281#0A0290A029000000 R
(1621945402.802140) elmcan 261#0000000001640008 R
(1621945402.802376) elmcan 241#5555555555550001 R
(1621945402.802612) elmcan 221#5DC2ED815D029F00 R
(1621945402.802853) elmcan 201#28D0184458004B00 R
(1621945402.842835) elmcan 301#0000 R
(1621945402.862875) elmcan 321#0000000004100408 R
(1621945402.900875) elmcan 221#5DC2ED815CF29F00 R
(1621945402.901115) elmcan 201#2890180455004900 R
(1621945402.942498) elmcan 301#0000 R
(1621945402.962544) elmcan 321#0000000004100408 R
(1621945403.000886) elmcan 221#5DC2ED815D029F00 R
(1621945403.001128) elmcan 201#28D0184458004B00 R
(1621945403.042165) elmcan 301#0000 R
(1621945403.062207) elmcan 321#0000000004100408 R
(1621945403.100897) elmcan 221#5DC2ED815CF29F00 R
(1621945403.101139) elmcan 201#2890180458004B00 R
(1621945403.141799) elmcan 301#0000 R
(1621945403.161839) elmcan 321#0000000004100408 R
(1621945403.195715) elmcan 101#0000000000 R
(1621945403.195867) elmcan 121#000000 R
(1621945403.200909) elmcan 221#5DC2ED815D029F00 R
(1621945403.201150) elmcan 201#28D0184458004B00 R
(1621945403.241451) elmcan 301#0000 R
(1621945403.261492) elmcan 321#0000000004100408 R
(1621945403.300921) elmcan 221#5DC2ED815D029F00 R
(1621945403.301163) elmcan 201#28D0184458004B00 R
(1621945403.341105) elmcan 301#0000 R
(1621945403.361147) elmcan 321#0000000004100408 R
(1621945403.400931) elmcan 221#5DC2ED815CF29F00 R
(1621945403.401175) elmcan 201#2890180458004B00 R
(1621945403.440761) elmcan 301#0000 R
(1621945403.460803) elmcan 321#0000000004100408 R
(1621945403.500943) elmcan 221#5DC2ED815D029F00 R
(1621945403.501185) elmcan 201#28D0184458004B00 R
(1621945403.540414) elmcan 301#0000 R
(1621945403.560458) elmcan 321#0000000004100408 R
(1621945403.600954) elmcan 221#5DC2ED815D029F00 R
(1621945403.601197) elmcan 201#28D0184458004B00 R
(1621945403.640071) elmcan 301#0000 R
(1621945403.660112) elmcan 321#0000000004100408 R
(1621945403.700965) elmcan 221#5DC2ED815D029F00 R
(1621945403.701207) elmcan 201#28D0184458004B00 R
(1621945403.739724) elmcan 301#0000 R
(1621945403.759768) elmcan 321#0000000004100408 R
(1621945403.800989) elmcan 2C1#0880000000001380 R
(1621945403.801243) elmcan 521#0000000000000000 R
(1621945403.801497) elmcan 501#0000C00000000000 R
(1621945403.801753) elmcan 2A1#0000000000000000 R
(1621945403.802001) elmcan 281#0A0290A029000000 R
(1621945403.802253) elmcan 261#0000000001640008 R
(1621945403.802489) elmcan 241#5555555555550001 R
(1621945403.802726) elmcan 221#5DC2ED815D029F00 R
(1621945403.802966) elmcan 201#28D0184458004B00 R
(1621945403.839380) elmcan 301#0000 R
(1621945403.859422) elmcan 321#0000000004100408 R
(1621945403.900991) elmcan 221#5DC2F7815D029F00 R
(1621945403.901237) elmcan 201#28D0180458004B00 R
(1621945403.939035) elmcan 301#0000 R
(1621945403.959077) elmcan 321#0000000004100408 R
(1621945404.001001) elmcan 221#5DC2F7815D029F00 R
(1621945404.001247) elmcan 201#28D0180458004B00 R
(1621945404.038694) elmcan 301#0000 R
(1621945404.058732) elmcan 321#0000000004100408 R
(1621945404.101013) elmcan 221#5DC2F7815D029F00 R
(1621945404.101257) elmcan 201#28D0180458004B00 R
(1621945404.138365) elmcan 301#0000 R
(1621945404.158387) elmcan 321#0000000004100408 R
(1621945404.195726) elmcan 101#0000000000 R
(1621945404.195878) elmcan 121#000000 R
(1621945404.201025) elmcan 221#5DC2F7815D029F00 R
(1621945404.201269) elmcan 201#28D0180458004B00 R
(1621945404.237999) elmcan 301#0000 R
(1621945404.258049) elmcan 321#0000000004100408 R
(1621945404.301031) elmcan 221#5DC2F7815CF29F00 R
(1621945404.301273) elmcan 201#2890180458004B00 R
(1621945404.337656) elmcan 301#0000 R
(1621945404.357696) elmcan 321#0000000004100408 R
(1621945404.401047) elmcan 221#5DC2F7815D029F00 R
(1621945404.401291) elmcan 201#28E0180458004B00 R
(1621945404.437309) elmcan 301#0000 R
(1621945404.457351) elmcan 321#0000000004100408 R
(1621945404.501055) elmcan 221#5DC2F7815CF29F00 R
(1621945404.501298) elmcan 201#28A0180458004B00 R
(1621945404.536963) elmcan 301#0000 R
(1621945404.557007) elmcan 321#0000000004100408 R
(1621945404.601066) elmcan 221#5DC2F7815CF29F00 R
(1621945404.601308) elmcan 201#28A0180458004B00 R
(1621945404.636618) elmcan 301#0000 R
(1621945404.656698) elmcan 321#0000000004100408 R
(1621945404.701081) elmcan 221#5DC2F7815D029F00 R
(1621945404.701327) elmcan 201#28E0180458004B00 R
(1621945404.736275) elmcan 301#0000 R
(1621945404.756316) elmcan 321#0000000004100408 R
(1621945404.801101) elmcan 2C1#0880000000001380 R
(1621945404.801355) elmcan 521#0000000000000000 R
(1621945404.801609) elmcan 501#0000C00000000000 R
(1621945404.801866) elmcan 2A1#0000000000000000 R
(1621945404.802114) elmcan 281#0A0290A029000000 R
(1621945404.802366) elmcan 261#0000000001640008 R
(1621945404.802602) elmcan 241#5555555555550001 R
(1621945404.802840) elmcan 221#5DC2F7815D029F00 R
(1621945404.803084) elmcan 201#28E0180458004B00 R
(1621945404.835929) elmcan 301#0000 R
(1621945404.855971) elmcan 321#0000000004100408 R
(1621945404.901100) elmcan 221#5DC2F7815CF29F00 R
(1621945404.901344) elmcan 201#28A0180458004B00 R
(1621945404.935589) elmcan 301#0000 R
(1621945404.955626) elmcan 321#0000000004100408 R
(1621945405.001112) elmcan 221#5DC2F7815CF29F00 R
(1621945405.001356) elmcan 201#28A0180458004B00 R
(1621945405.035239) elmcan 301#0000 R
(1621945405.055281) elmcan 321#0000000004100408 R
(1621945405.101126) elmcan 221#5DC2F7815D029F00 R
(1621945405.101368) elmcan 201#28E0180455004900 R
(1621945405.134893) elmcan 301#0000 R
(1621945405.154967) elmcan 321#0000000004100408 R
(1621945405.195741) elmcan 101#0000000000 R
(1621945405.195893) elmcan 121#000000 R
(1621945405.201138) elmcan 221#5DC2F7815D029F00 R
(1621945405.201382) elmcan 201#28E0180458004B00 R
(1621945405.234564) elmcan 301#0000 R
(1621945405.254590) elmcan 321#0000000004100408 R
(1621945405.301145) elmcan 221#5DC2F7815CF29F00 R
(1621945405.301389) elmcan 201#28A0180458004B00 R
(1621945405.334202) elmcan 301#0000 R
(1621945405.354246) elmcan 321#0000000004100408 R
(1621945405.401159) elmcan 221#5DCAF7815D029F00 R
(1621945405.401403) elmcan 201#28E0180458004B00 R
(1621945405.433858) elmcan 301#0000 R
(1621945405.453900) elmcan 321#0000000004100408 R
(1621945405.501173) elmcan 221#5DC2F7815D029F00 R
(1621945405.501419) elmcan 201#28E0180458004B00 R
(1621945405.533513) elmcan 301#0000 R
(1621945405.553555) elmcan 321#0000000004100408 R
(1621945405.601184) elmcan 221#5DC2F7815D029F00 R
(1621945405.601430) elmcan 201#28E0180458004B00 R
(1621945405.633197) elmcan 301#0000 R
(1621945405.653211) elmcan 321#0000000004100408 R
(1621945405.701194) elmcan 221#5DC2F7815D029F00 R
(1621945405.701440) elmcan 201#28E0180458004B00 R
(1621945405.732822) elmcan 301#0000 R
(1621945405.752864) elmcan 321#0000000004100408 R
(1621945405.801216) elmcan 2C1#0880000000001380 R
(1621945405.801470) elmcan 521#0000000000000000 R
(1621945405.801724) elmcan 501#0000C00000000000 R
(1621945405.801980) elmcan 2A1#0000000000000000 R
(1621945405.802228) elmcan 281#0A0290A029000000 R
(1621945405.802481) elmcan 261#0000000001640008 R
(1621945405.802717) elmcan 241#5555555555550001 R
(1621945405.802955) elmcan 221#5DC2F7815D029F00 R
(1621945405.803199) elmcan 201#28E0180458004B00 R
(1621945405.832477) elmcan 301#0000 R
(1621945405.852521) elmcan 321#0000000004100408 R
(1621945405.901218) elmcan 221#5DC2F7815D029F00 R
(1621945405.901464) elmcan 201#28E0180458004B00 R
(1621945405.932133) elmcan 301#0000 R
(1621945405.952175) elmcan 321#0000000004100408 R
(1621945406.001228) elmcan 221#5DC2F7815D029F00 R
(1621945406.001472) elmcan 201#28E0180458004B00 R
(1621945406.031786) elmcan 301#0000 R
(1621945406.051830) elmcan 321#0000000004100408 R
(1621945406.101239) elmcan 221#5DC2F7815D029F00 R
(1621945406.101486) elmcan 201#28E0180458004B00 R
(1621945406.131443) elmcan 301#0000 R
(1621945406.151485) elmcan 321#0000000004100408 R
(1621945406.195754) elmcan 101#0000000000 R
(1621945406.195906) elmcan 121#000000 R
(1621945406.201251) elmcan 221#5DC2F7815D029F00 R
(1621945406.201495) elmcan 201#28E0180458004B00 R
(1621945406.231098) elmcan 301#0000 R
(1621945406.251139) elmcan 321#0000000004100408 R
(1621945406.301263) elmcan 221#5DC2F7815D029F00 R
(1621945406.301507) elmcan 201#28E0180458004B00 R
(1621945406.330763) elmcan 301#0000 R
(1621945406.350821) elmcan 321#0000000004100408 R
(1621945406.401274) elmcan 221#5DC2F7815D029F00 R
(1621945406.401520) elmcan 201#28E0180458004B00 R
(1621945406.430407) elmcan 301#0000 R
(1621945406.450449) elmcan 321#0000000004100408 R
(1621945406.501281) elmcan 221#5DC2F7815CF29F00 R
(1621945406.501525) elmcan 201#28A0180458004B00 R
(1621945406.530079) elmcan 301#0000 R
(1621945406.550105) elmcan 321#0000000004100408 R
(1621945406.601293) elmcan 221#5DC2F7815CF29F00 R
(1621945406.601537) elmcan 201#28A0180458004B00 R
(1621945406.629716) elmcan 301#0000 R
(1621945406.649758) elmcan 321#0000000004100408 R
(1621945406.701308) elmcan 221#5DC2F7815D029F00 R
(1621945406.701554) elmcan 201#28E0180458004B00 R
(1621945406.729375) elmcan 301#0000 R
(1621945406.749414) elmcan 321#0000000004100408 R
(1621945406.801330) elmcan 2C1#0880000000001380 R
(1621945406.801584) elmcan 521#0000000000000000 R
(1621945406.801839) elmcan 501#0000C00000000000 R
(1621945406.802095) elmcan 2A1#0000000000000000 R
(1621945406.802343) elmcan 281#0A0290A029000000 R
(1621945406.802595) elmcan 261#0000000001640008 R
(1621945406.802831) elmcan 241#5555555555550001 R
(1621945406.803069) elmcan 221#5DC2F7815D029F00 R
(1621945406.803314) elmcan 201#28E0180458004B00 R
(1621945406.829026) elmcan 301#0000 R
(1621945406.849070) elmcan 321#0000000004100408 R
(1621945406.901327) elmcan 221#5DC2F7815CF29F00 R
(1621945406.901571) elmcan 201#28A0180458004B00 R
(1621945406.928681) elmcan 301#0000 R
(1621945406.948726) elmcan 321#0000000004100408 R
(1621945407.001338) elmcan 221#5DC2F7815CF29F00 R
(1621945407.001580) elmcan 201#28A0180458004B00 R
(1621945407.028337) elmcan 301#0000 R
(1621945407.048379) elmcan 321#0000000004100408 R
(1621945407.101354) elmcan 221#5DC2F7815D029F00 R
(1621945407.101599) elmcan 201#28E0180458004B00 R
(1621945407.128000) elmcan 301#0000 R
(1621945407.148036) elmcan 321#0000000004100408 R
(1621945407.195767) elmcan 101#0000000000 R
(1621945407.195919) elmcan 121#000000 R
(1621945407.201362) elmcan 221#5DC2F7815CF29F00 R
(1621945407.201604) elmcan 201#28A0180455004900 R
(1621945407.227645) elmcan 301#0000 R
(1621945407.247689) elmcan 321#0000000004100408 R
(1621945407.301373) elmcan 221#5DC2F7815CF29F00 R
(1621945407.301617) elmcan 201#28A0180455004900 R
(1621945407.327357) elmcan 301#0000 R
(1621945407.347343) elmcan 321#0000000004100408 R
(1621945407.401389) elmcan 221#5DC2F7815D029F00 R
(1621945407.401633) elmcan 201#28E0180458004B00 R
(1621945407.426954) elmcan 301#0000 R
(1621945407.446998) elmcan 321#0000000004100408 R
